!Agilent Technologies,E8364B,US42250162,A.07.50.67
!Agilent E8364B: A.07.50.67
!Date: Friday, June 23, 2023 16:18:22
!Correction: S11(Off) 
!S21(Off) 
!S12(Off) 
!S22(Off) 
!S2P File: Measurements: S11, S21, S12, S22:
# Hz S  RI   R 50
50000000 -4.495001e-001 3.537630e-003 7.071068e-011 7.071068e-011 7.071068e-011 7.071068e-011 7.071068e-011 7.071068e-011
52250000 -4.336690e-001 8.964171e-002 7.071068e-011 7.071068e-011 7.071068e-011 7.071068e-011 7.071068e-011 7.071068e-011
54500000 -3.977130e-001 1.675417e-001 7.071068e-011 7.071068e-011 7.071068e-011 7.071068e-011 7.071068e-011 7.071068e-011
56750000 -3.465577e-001 2.328937e-001 7.071068e-011 7.071068e-011 7.071068e-011 7.071068e-011 7.071068e-011 7.071068e-011
59000000 -2.856874e-001 2.836777e-001 7.071068e-011 7.071068e-011 7.071068e-011 7.071068e-011 7.071068e-011 7.071068e-011
61250000 -2.165298e-001 3.173403e-001 7.071068e-011 7.071068e-011 7.071068e-011 7.071068e-011 7.071068e-011 7.071068e-011
63500000 -1.437106e-001 3.326230e-001 7.071068e-011 7.071068e-011 7.071068e-011 7.071068e-011 7.071068e-011 7.071068e-011
65750000 -7.214706e-002 3.294013e-001 7.071068e-011 7.071068e-011 7.071068e-011 7.071068e-011 7.071068e-011 7.071068e-011
68000000 -7.009455e-003 3.096580e-001 7.071068e-011 7.071068e-011 7.071068e-011 7.071068e-011 7.071068e-011 7.071068e-011
70250000 4.585269e-002 2.768351e-001 7.071068e-011 7.071068e-011 7.071068e-011 7.071068e-011 7.071068e-011 7.071068e-011
72500000 8.622513e-002 2.325023e-001 7.071068e-011 7.071068e-011 7.071068e-011 7.071068e-011 7.071068e-011 7.071068e-011
74750000 1.094190e-001 1.812119e-001 7.071068e-011 7.071068e-011 7.071068e-011 7.071068e-011 7.071068e-011 7.071068e-011
77000000 1.137273e-001 1.293445e-001 7.071068e-011 7.071068e-011 7.071068e-011 7.071068e-011 7.071068e-011 7.071068e-011
79250000 1.009590e-001 8.415540e-002 7.071068e-011 7.071068e-011 7.071068e-011 7.071068e-011 7.071068e-011 7.071068e-011
81500000 7.416903e-002 5.055509e-002 7.071068e-011 7.071068e-011 7.071068e-011 7.071068e-011 7.071068e-011 7.071068e-011
83750000 3.830211e-002 3.239745e-002 7.071068e-011 7.071068e-011 7.071068e-011 7.071068e-011 7.071068e-011 7.071068e-011
86000000 -2.499865e-004 3.218164e-002 7.071068e-011 7.071068e-011 7.071068e-011 7.071068e-011 7.071068e-011 7.071068e-011
88250000 -3.469019e-002 4.936128e-002 7.071068e-011 7.071068e-011 7.071068e-011 7.071068e-011 7.071068e-011 7.071068e-011
90500000 -5.933543e-002 8.170759e-002 7.071068e-011 7.071068e-011 7.071068e-011 7.071068e-011 7.071068e-011 7.071068e-011
92750000 -6.891885e-002 1.248723e-001 7.071068e-011 7.071068e-011 7.071068e-011 7.071068e-011 7.071068e-011 7.071068e-011
95000000 -6.052682e-002 1.723769e-001 7.071068e-011 7.071068e-011 7.071068e-011 7.071068e-011 7.071068e-011 7.071068e-011
97250000 -3.357965e-002 2.179003e-001 7.071068e-011 7.071068e-011 7.071068e-011 7.071068e-011 7.071068e-011 7.071068e-011
99500000 1.052338e-002 2.551191e-001 7.071068e-011 7.071068e-011 7.071068e-011 7.071068e-011 7.071068e-011 7.071068e-011
101750000 6.843223e-002 2.793286e-001 7.071068e-011 7.071068e-011 7.071068e-011 7.071068e-011 7.071068e-011 7.071068e-011
104000000 1.356198e-001 2.863115e-001 7.071068e-011 7.071068e-011 7.071068e-011 7.071068e-011 7.071068e-011 7.071068e-011
106250000 2.061337e-001 2.734507e-001 7.071068e-011 7.071068e-011 7.071068e-011 7.071068e-011 7.071068e-011 7.071068e-011
108500000 2.737469e-001 2.405342e-001 7.071068e-011 7.071068e-011 7.071068e-011 7.071068e-011 7.071068e-011 7.071068e-011
110750000 3.313754e-001 1.890136e-001 7.071068e-011 7.071068e-011 7.071068e-011 7.071068e-011 7.071068e-011 7.071068e-011
113000000 3.770089e-001 1.229935e-001 7.071068e-011 7.071068e-011 7.071068e-011 7.071068e-011 7.071068e-011 7.071068e-011
115250000 4.061208e-001 4.667967e-002 7.071068e-011 7.071068e-011 7.071068e-011 7.071068e-011 7.071068e-011 7.071068e-011
117500000 4.163554e-001 -3.602437e-002 7.071068e-011 7.071068e-011 7.071068e-011 7.071068e-011 7.071068e-011 7.071068e-011
119750000 4.068303e-001 -1.196607e-001 7.071068e-011 7.071068e-011 7.071068e-011 7.071068e-011 7.071068e-011 7.071068e-011
122000000 3.783011e-001 -1.991722e-001 7.071068e-011 7.071068e-011 7.071068e-011 7.071068e-011 7.071068e-011 7.071068e-011
124250000 3.333745e-001 -2.712083e-001 7.071068e-011 7.071068e-011 7.071068e-011 7.071068e-011 7.071068e-011 7.071068e-011
126500000 2.738919e-001 -3.314141e-001 7.071068e-011 7.071068e-011 7.071068e-011 7.071068e-011 7.071068e-011 7.071068e-011
128750000 2.029499e-001 -3.769176e-001 7.071068e-011 7.071068e-011 7.071068e-011 7.071068e-011 7.071068e-011 7.071068e-011
131000000 1.240712e-001 -4.057218e-001 7.071068e-011 7.071068e-011 7.071068e-011 7.071068e-011 7.071068e-011 7.071068e-011
133250000 4.146562e-002 -4.166028e-001 7.071068e-011 7.071068e-011 7.071068e-011 7.071068e-011 7.071068e-011 7.071068e-011
135500000 -4.083648e-002 -4.101363e-001 7.071068e-011 7.071068e-011 7.071068e-011 7.071068e-011 7.071068e-011 7.071068e-011
137750000 -1.192258e-001 -3.863428e-001 7.071068e-011 7.071068e-011 7.071068e-011 7.071068e-011 7.071068e-011 7.071068e-011
140000000 -1.897790e-001 -3.454891e-001 7.071068e-011 7.071068e-011 7.071068e-011 7.071068e-011 7.071068e-011 7.071068e-011
142250000 -2.477022e-001 -2.900431e-001 7.071068e-011 7.071068e-011 7.071068e-011 7.071068e-011 7.071068e-011 7.071068e-011
144500000 -2.897469e-001 -2.238031e-001 7.071068e-011 7.071068e-011 7.071068e-011 7.071068e-011 7.071068e-011 7.071068e-011
146750000 -3.143459e-001 -1.510644e-001 7.071068e-011 7.071068e-011 7.071068e-011 7.071068e-011 7.071068e-011 7.071068e-011
149000000 -3.191492e-001 -7.723965e-002 7.071068e-011 7.071068e-011 7.071068e-011 7.071068e-011 7.071068e-011 7.071068e-011
151250000 -3.049826e-001 -7.358795e-003 7.071068e-011 7.071068e-011 7.071068e-011 7.071068e-011 7.071068e-011 7.071068e-011
153500000 -2.737123e-001 5.260278e-002 7.071068e-011 7.071068e-011 7.071068e-011 7.071068e-011 7.071068e-011 7.071068e-011
155750000 -2.292366e-001 9.815821e-002 7.071068e-011 7.071068e-011 7.071068e-011 7.071068e-011 7.071068e-011 7.071068e-011
158000000 -1.770459e-001 1.262985e-001 7.071068e-011 7.071068e-011 7.071068e-011 7.071068e-011 7.071068e-011 7.071068e-011
160250000 -1.230897e-001 1.353727e-001 7.071068e-011 7.071068e-011 7.071068e-011 7.071068e-011 7.071068e-011 7.071068e-011
162500000 -7.391052e-002 1.263123e-001 7.071068e-011 7.071068e-011 7.071068e-011 7.071068e-011 7.071068e-011 7.071068e-011
164750000 -3.518666e-002 1.021423e-001 7.071068e-011 7.071068e-011 7.071068e-011 7.071068e-011 7.071068e-011 7.071068e-011
167000000 -1.123571e-002 6.771253e-002 7.071068e-011 7.071068e-011 7.071068e-011 7.071068e-011 7.071068e-011 7.071068e-011
169250000 -4.447765e-003 2.901945e-002 7.071068e-011 7.071068e-011 7.071068e-011 7.071068e-011 7.071068e-011 7.071068e-011
171500000 -1.499381e-002 -7.553758e-003 7.071068e-011 7.071068e-011 7.071068e-011 7.071068e-011 7.071068e-011 7.071068e-011
173750000 -4.074875e-002 -3.592812e-002 7.071068e-011 7.071068e-011 7.071068e-011 7.071068e-011 7.071068e-011 7.071068e-011
176000000 -7.774148e-002 -5.136103e-002 7.071068e-011 7.071068e-011 7.071068e-011 7.071068e-011 7.071068e-011 7.071068e-011
178250000 -1.206920e-001 -5.071730e-002 7.071068e-011 7.071068e-011 7.071068e-011 7.071068e-011 7.071068e-011 7.071068e-011
180500000 -1.637222e-001 -3.291856e-002 7.071068e-011 7.071068e-011 7.071068e-011 7.071068e-011 7.071068e-011 7.071068e-011
182750000 -2.009239e-001 1.097381e-003 7.071068e-011 7.071068e-011 7.071068e-011 7.071068e-011 7.071068e-011 7.071068e-011
185000000 -2.273432e-001 4.861460e-002 7.071068e-011 7.071068e-011 7.071068e-011 7.071068e-011 7.071068e-011 7.071068e-011
187250000 -2.392980e-001 1.055730e-001 7.071068e-011 7.071068e-011 7.071068e-011 7.071068e-011 7.071068e-011 7.071068e-011
189500000 -2.341935e-001 1.674300e-001 7.071068e-011 7.071068e-011 7.071068e-011 7.071068e-011 7.071068e-011 7.071068e-011
191750000 -2.114232e-001 2.285696e-001 7.071068e-011 7.071068e-011 7.071068e-011 7.071068e-011 7.071068e-011 7.071068e-011
194000000 -1.719343e-001 2.838355e-001 7.071068e-011 7.071068e-011 7.071068e-011 7.071068e-011 7.071068e-011 7.071068e-011
196250000 -1.180516e-001 3.290625e-001 7.071068e-011 7.071068e-011 7.071068e-011 7.071068e-011 7.071068e-011 7.071068e-011
198500000 -5.291758e-002 3.608101e-001 7.071068e-011 7.071068e-011 7.071068e-011 7.071068e-011 7.071068e-011 7.071068e-011
200750000 1.977134e-002 3.764964e-001 7.071068e-011 7.071068e-011 7.071068e-011 7.071068e-011 7.071068e-011 7.071068e-011
203000000 9.578236e-002 3.752189e-001 7.071068e-011 7.071068e-011 7.071068e-011 7.071068e-011 7.071068e-011 7.071068e-011
205250000 1.705297e-001 3.562590e-001 7.071068e-011 7.071068e-011 7.071068e-011 7.071068e-011 7.071068e-011 7.071068e-011
207500000 2.397708e-001 3.204918e-001 7.071068e-011 7.071068e-011 7.071068e-011 7.071068e-011 7.071068e-011 7.071068e-011
209750000 2.996143e-001 2.697993e-001 7.071068e-011 7.071068e-011 7.071068e-011 7.071068e-011 7.071068e-011 7.071068e-011
212000000 3.467851e-001 2.069002e-001 7.071068e-011 7.071068e-011 7.071068e-011 7.071068e-011 7.071068e-011 7.071068e-011
214250000 3.786769e-001 1.353149e-001 7.071068e-011 7.071068e-011 7.071068e-011 7.071068e-011 7.071068e-011 7.071068e-011
216500000 3.938269e-001 5.901412e-002 7.071068e-011 7.071068e-011 7.071068e-011 7.071068e-011 7.071068e-011 7.071068e-011
218750000 3.917639e-001 -1.791243e-002 7.071068e-011 7.071068e-011 7.071068e-011 7.071068e-011 7.071068e-011 7.071068e-011
221000000 3.729973e-001 -9.135276e-002 7.071068e-011 7.071068e-011 7.071068e-011 7.071068e-011 7.071068e-011 7.071068e-011
223250000 3.390080e-001 -1.575039e-001 7.071068e-011 7.071068e-011 7.071068e-011 7.071068e-011 7.071068e-011 7.071068e-011
225500000 2.922927e-001 -2.128977e-001 7.071068e-011 7.071068e-011 7.071068e-011 7.071068e-011 7.071068e-011 7.071068e-011
227750000 2.360076e-001 -2.550853e-001 7.071068e-011 7.071068e-011 7.071068e-011 7.071068e-011 7.071068e-011 7.071068e-011
230000000 1.737509e-001 -2.823345e-001 7.071068e-011 7.071068e-011 7.071068e-011 7.071068e-011 7.071068e-011 7.071068e-011
232250000 1.094706e-001 -2.938496e-001 7.071068e-011 7.071068e-011 7.071068e-011 7.071068e-011 7.071068e-011 7.071068e-011
234500000 4.728661e-002 -2.898523e-001 7.071068e-011 7.071068e-011 7.071068e-011 7.071068e-011 7.071068e-011 7.071068e-011
236750000 -8.916439e-003 -2.717297e-001 7.071068e-011 7.071068e-011 7.071068e-011 7.071068e-011 7.071068e-011 7.071068e-011
239000000 -5.534419e-002 -2.419067e-001 7.071068e-011 7.071068e-011 7.071068e-011 7.071068e-011 7.071068e-011 7.071068e-011
241250000 -8.972932e-002 -2.040914e-001 7.071068e-011 7.071068e-011 7.071068e-011 7.071068e-011 7.071068e-011 7.071068e-011
243500000 -1.103303e-001 -1.620489e-001 7.071068e-011 7.071068e-011 7.071068e-011 7.071068e-011 7.071068e-011 7.071068e-011
245750000 -1.168952e-001 -1.202860e-001 7.071068e-011 7.071068e-011 7.071068e-011 7.071068e-011 7.071068e-011 7.071068e-011
248000000 -1.106358e-001 -8.319207e-002 7.071068e-011 7.071068e-011 7.071068e-011 7.071068e-011 7.071068e-011 7.071068e-011
250250000 -9.405737e-002 -5.449516e-002 7.071068e-011 7.071068e-011 7.071068e-011 7.071068e-011 7.071068e-011 7.071068e-011
252500000 -7.089080e-002 -3.699208e-002 7.071068e-011 7.071068e-011 7.071068e-011 7.071068e-011 7.071068e-011 7.071068e-011
254750000 -4.562008e-002 -3.203044e-002 7.071068e-011 7.071068e-011 7.071068e-011 7.071068e-011 7.071068e-011 7.071068e-011
257000000 -2.303618e-002 -3.919460e-002 7.071068e-011 7.071068e-011 7.071068e-011 7.071068e-011 7.071068e-011 7.071068e-011
259250000 -7.207236e-003 -5.647959e-002 7.071068e-011 7.071068e-011 7.071068e-011 7.071068e-011 7.071068e-011 7.071068e-011
261500000 -1.163269e-003 -8.064663e-002 7.071068e-011 7.071068e-011 7.071068e-011 7.071068e-011 7.071068e-011 7.071068e-011
263750000 -6.593174e-003 -1.078000e-001 7.071068e-011 7.071068e-011 7.071068e-011 7.071068e-011 7.071068e-011 7.071068e-011
266000000 -2.384050e-002 -1.338889e-001 7.071068e-011 7.071068e-011 7.071068e-011 7.071068e-011 7.071068e-011 7.071068e-011
268250000 -5.210470e-002 -1.550443e-001 7.071068e-011 7.071068e-011 7.071068e-011 7.071068e-011 7.071068e-011 7.071068e-011
270500000 -8.966176e-002 -1.679559e-001 7.071068e-011 7.071068e-011 7.071068e-011 7.071068e-011 7.071068e-011 7.071068e-011
272750000 -1.338557e-001 -1.696078e-001 7.071068e-011 7.071068e-011 7.071068e-011 7.071068e-011 7.071068e-011 7.071068e-011
275000000 -1.809711e-001 -1.578466e-001 7.071068e-011 7.071068e-011 7.071068e-011 7.071068e-011 7.071068e-011 7.071068e-011
277250000 -2.263097e-001 -1.319410e-001 7.071068e-011 7.071068e-011 7.071068e-011 7.071068e-011 7.071068e-011 7.071068e-011
279500000 -2.653977e-001 -9.379490e-002 7.071068e-011 7.071068e-011 7.071068e-011 7.071068e-011 7.071068e-011 7.071068e-011
281750000 -2.959747e-001 -4.570765e-002 7.071068e-011 7.071068e-011 7.071068e-011 7.071068e-011 7.071068e-011 7.071068e-011
284000000 -3.163644e-001 1.075294e-002 7.071068e-011 7.071068e-011 7.071068e-011 7.071068e-011 7.071068e-011 7.071068e-011
286250000 -3.238026e-001 7.401165e-002 7.071068e-011 7.071068e-011 7.071068e-011 7.071068e-011 7.071068e-011 7.071068e-011
288500000 -3.154982e-001 1.400580e-001 7.071068e-011 7.071068e-011 7.071068e-011 7.071068e-011 7.071068e-011 7.071068e-011
290750000 -2.910500e-001 2.039406e-001 7.071068e-011 7.071068e-011 7.071068e-011 7.071068e-011 7.071068e-011 7.071068e-011
293000000 -2.518770e-001 2.613125e-001 7.071068e-011 7.071068e-011 7.071068e-011 7.071068e-011 7.071068e-011 7.071068e-011
295250000 -2.003848e-001 3.088685e-001 7.071068e-011 7.071068e-011 7.071068e-011 7.071068e-011 7.071068e-011 7.071068e-011
297500000 -1.393927e-001 3.440534e-001 7.071068e-011 7.071068e-011 7.071068e-011 7.071068e-011 7.071068e-011 7.071068e-011
299750000 -7.221538e-002 3.651249e-001 7.071068e-011 7.071068e-011 7.071068e-011 7.071068e-011 7.071068e-011 7.071068e-011
302000000 -2.180555e-003 3.711543e-001 7.071068e-011 7.071068e-011 7.071068e-011 7.071068e-011 7.071068e-011 7.071068e-011
304250000 6.715278e-002 3.619748e-001 7.071068e-011 7.071068e-011 7.071068e-011 7.071068e-011 7.071068e-011 7.071068e-011
306500000 1.323090e-001 3.381425e-001 7.071068e-011 7.071068e-011 7.071068e-011 7.071068e-011 7.071068e-011 7.071068e-011
308750000 1.898774e-001 3.011278e-001 7.071068e-011 7.071068e-011 7.071068e-011 7.071068e-011 7.071068e-011 7.071068e-011
311000000 2.369611e-001 2.531825e-001 7.071068e-011 7.071068e-011 7.071068e-011 7.071068e-011 7.071068e-011 7.071068e-011
313250000 2.713332e-001 1.971810e-001 7.071068e-011 7.071068e-011 7.071068e-011 7.071068e-011 7.071068e-011 7.071068e-011
315500000 2.914629e-001 1.365969e-001 7.071068e-011 7.071068e-011 7.071068e-011 7.071068e-011 7.071068e-011 7.071068e-011
317750000 2.968749e-001 7.522494e-002 7.071068e-011 7.071068e-011 7.071068e-011 7.071068e-011 7.071068e-011 7.071068e-011
320000000 2.884818e-001 1.695597e-002 7.071068e-011 7.071068e-011 7.071068e-011 7.071068e-011 7.071068e-011 7.071068e-011
322250000 2.673998e-001 -3.478668e-002 7.071068e-011 7.071068e-011 7.071068e-011 7.071068e-011 7.071068e-011 7.071068e-011
324500000 2.361375e-001 -7.704081e-002 7.071068e-011 7.071068e-011 7.071068e-011 7.071068e-011 7.071068e-011 7.071068e-011
326750000 1.978702e-001 -1.079336e-001 7.071068e-011 7.071068e-011 7.071068e-011 7.071068e-011 7.071068e-011 7.071068e-011
329000000 1.570457e-001 -1.247290e-001 7.071068e-011 7.071068e-011 7.071068e-011 7.071068e-011 7.071068e-011 7.071068e-011
331250000 1.169115e-001 -1.301000e-001 7.071068e-011 7.071068e-011 7.071068e-011 7.071068e-011 7.071068e-011 7.071068e-011
333500000 8.149827e-002 -1.240349e-001 7.071068e-011 7.071068e-011 7.071068e-011 7.071068e-011 7.071068e-011 7.071068e-011
335750000 5.373513e-002 -1.091597e-001 7.071068e-011 7.071068e-011 7.071068e-011 7.071068e-011 7.071068e-011 7.071068e-011
338000000 3.571327e-002 -8.871615e-002 7.071068e-011 7.071068e-011 7.071068e-011 7.071068e-011 7.071068e-011 7.071068e-011
340250000 2.836143e-002 -6.652295e-002 7.071068e-011 7.071068e-011 7.071068e-011 7.071068e-011 7.071068e-011 7.071068e-011
342500000 3.124719e-002 -4.637245e-002 7.071068e-011 7.071068e-011 7.071068e-011 7.071068e-011 7.071068e-011 7.071068e-011
344750000 4.282103e-002 -3.157056e-002 7.071068e-011 7.071068e-011 7.071068e-011 7.071068e-011 7.071068e-011 7.071068e-011
347000000 6.047057e-002 -2.480148e-002 7.071068e-011 7.071068e-011 7.071068e-011 7.071068e-011 7.071068e-011 7.071068e-011
349250000 8.089732e-002 -2.767307e-002 7.071068e-011 7.071068e-011 7.071068e-011 7.071068e-011 7.071068e-011 7.071068e-011
351500000 1.002845e-001 -4.056684e-002 7.071068e-011 7.071068e-011 7.071068e-011 7.071068e-011 7.071068e-011 7.071068e-011
353750000 1.152160e-001 -6.255620e-002 7.071068e-011 7.071068e-011 7.071068e-011 7.071068e-011 7.071068e-011 7.071068e-011
356000000 1.227783e-001 -9.169117e-002 7.071068e-011 7.071068e-011 7.071068e-011 7.071068e-011 7.071068e-011 7.071068e-011
358250000 1.208171e-001 -1.255949e-001 7.071068e-011 7.071068e-011 7.071068e-011 7.071068e-011 7.071068e-011 7.071068e-011
360500000 1.079890e-001 -1.608327e-001 7.071068e-011 7.071068e-011 7.071068e-011 7.071068e-011 7.071068e-011 7.071068e-011
362750000 8.416296e-002 -1.934707e-001 7.071068e-011 7.071068e-011 7.071068e-011 7.071068e-011 7.071068e-011 7.071068e-011
365000000 4.991683e-002 -2.199341e-001 7.071068e-011 7.071068e-011 7.071068e-011 7.071068e-011 7.071068e-011 7.071068e-011
367250000 7.544459e-003 -2.340029e-001 7.071068e-011 7.071068e-011 7.071068e-011 7.071068e-011 7.071068e-011 7.071068e-011
369500000 -1.327445e-002 -2.349758e-001 7.071068e-011 7.071068e-011 7.071068e-011 7.071068e-011 7.071068e-011 7.071068e-011
371750000 -7.088970e-002 -2.627786e-001 7.071068e-011 7.071068e-011 7.071068e-011 7.071068e-011 7.071068e-011 7.071068e-011
374000000 -1.291058e-001 -2.516014e-001 7.071068e-011 7.071068e-011 7.071068e-011 7.071068e-011 7.071068e-011 7.071068e-011
376250000 -1.804579e-001 -2.280167e-001 7.071068e-011 7.071068e-011 7.071068e-011 7.071068e-011 7.071068e-011 7.071068e-011
378500000 -2.254813e-001 -1.938566e-001 7.071068e-011 7.071068e-011 7.071068e-011 7.071068e-011 7.071068e-011 7.071068e-011
380750000 -2.624536e-001 -1.504448e-001 7.071068e-011 7.071068e-011 7.071068e-011 7.071068e-011 7.071068e-011 7.071068e-011
383000000 -2.894616e-001 -9.977987e-002 7.071068e-011 7.071068e-011 7.071068e-011 7.071068e-011 7.071068e-011 7.071068e-011
385250000 -3.051475e-001 -4.424698e-002 7.071068e-011 7.071068e-011 7.071068e-011 7.071068e-011 7.071068e-011 7.071068e-011
387500000 -3.086757e-001 1.348718e-002 7.071068e-011 7.071068e-011 7.071068e-011 7.071068e-011 7.071068e-011 7.071068e-011
389750000 -2.998742e-001 7.050761e-002 7.071068e-011 7.071068e-011 7.071068e-011 7.071068e-011 7.071068e-011 7.071068e-011
392000000 -2.792633e-001 1.239403e-001 7.071068e-011 7.071068e-011 7.071068e-011 7.071068e-011 7.071068e-011 7.071068e-011
394250000 -2.482138e-001 1.710310e-001 7.071068e-011 7.071068e-011 7.071068e-011 7.071068e-011 7.071068e-011 7.071068e-011
396500000 -2.086492e-001 2.097351e-001 7.071068e-011 7.071068e-011 7.071068e-011 7.071068e-011 7.071068e-011 7.071068e-011
398750000 -1.629815e-001 2.385080e-001 7.071068e-011 7.071068e-011 7.071068e-011 7.071068e-011 7.071068e-011 7.071068e-011
401000000 -1.137562e-001 2.563248e-001 7.071068e-011 7.071068e-011 7.071068e-011 7.071068e-011 7.071068e-011 7.071068e-011
403250000 -6.383843e-002 2.629770e-001 7.071068e-011 7.071068e-011 7.071068e-011 7.071068e-011 7.071068e-011 7.071068e-011
405500000 -1.591065e-002 2.590746e-001 7.071068e-011 7.071068e-011 7.071068e-011 7.071068e-011 7.071068e-011 7.071068e-011
407750000 2.776367e-002 2.457501e-001 7.071068e-011 7.071068e-011 7.071068e-011 7.071068e-011 7.071068e-011 7.071068e-011
